Circuit: * C:\Users\Virgil\Desktop\P1_2023_431C_RONCEA_TEODOR_SERS_N18_LTspice\Simulations\SIMULATOR\Draft1.asc

Warning: Multiple definitions of model "bc807-25" Type: BJT
Direct Newton iteration failed to find .op point.  (Use ".option noopiter" to skip.)
Starting Gmin stepping
Gmin = 10
Gmin = 1.07374
Gmin = 0.115292
Gmin = 0.0123794
Gmin = 0.00132923
Gmin = 0.000142725
vernier = 0.5
vernier = 0.666667
Gmin = 4.65514e-005
vernier = 0.888888
Gmin = 7.53781e-006
vernier = 1
Gmin = 8.09366e-007
Gmin = 8.6905e-008
Gmin = 9.33136e-009
Gmin = 1.00195e-009
Gmin = 1.07583e-010
Gmin = 1.15517e-011
Gmin = 1.24035e-012
Gmin = 1.33182e-013
Gmin = 0
Gmin stepping succeeded in finding the operating point.

Semiconductor Device Operating Points:
                        --- Bipolar Transistors ---
Name:       q9          q8          q7          q6          q2
Model:    2n3906      2n3906     bc817-25    bc817-25    bc817-25
Ib:      -3.43e-05   -1.33e-05    2.21e-05    2.20e-05    6.35e-07
Ic:      -7.21e-03   -2.32e-03    7.16e-03    7.47e-03    2.42e-04
Vbe:     -7.46e-01   -7.23e-01    7.01e-01    7.01e-01    6.16e-01
Vbc:      2.28e+01    7.46e-01    0.00e+00   -4.80e+00   -1.65e+01
Vce:     -2.36e+01   -1.47e+00    7.01e-01    5.50e+00    1.71e+01
BetaDC:   2.10e+02    1.74e+02    3.24e+02    3.39e+02    3.82e+02
Gm:       3.02e-01    9.79e-02    2.99e-01    3.12e-01    1.03e-02
Rpi:      6.86e+02    1.77e+03    1.07e+03    1.07e+03    3.72e+04
Rx:       2.00e+01    2.00e+01    1.00e+00    1.00e+00    1.00e+00
Ro:       1.70e+04    4.34e+04    1.46e+04    1.47e+04    5.02e+05
Cbe:      1.21e-10    4.98e-11    2.53e-10    2.59e-10    7.46e-11
Cbc:      1.43e-12    3.53e-12    5.38e-12    2.12e-12    1.34e-12
Cjs:      0.00e+00    0.00e+00    0.00e+00    0.00e+00    0.00e+00
BetaAC:   2.07e+02    1.73e+02    3.19e+02    3.34e+02    3.81e+02
Cbx:      0.00e+00    0.00e+00    6.43e-12    2.54e-12    1.60e-12
Ft:       3.91e+08    2.92e+08    1.80e+08    1.88e+08    2.10e+07

Name:       q1
Model:   bc817-25
Ib:       1.88e-05
Ic:       7.21e-03
Vbe:      6.98e-01
Vbc:     -1.88e+01
Vce:      1.95e+01
BetaDC:   3.83e+02
Gm:       3.01e-01
Rpi:      1.26e+03
Rx:       1.00e+00
Ro:       1.72e+04
Cbe:      2.52e-10
Cbc:      1.27e-12
Cjs:      0.00e+00
BetaAC:   3.78e+02
Cbx:      1.52e-12
Ft:       1.88e+08

                        --- MOSFET Transistors ---
Name:          m1
Model:        nmos
Id:          1.22e-03
Vgs:         1.03e+01
Vds:         1.28e+01
Vbs:         0.00e+00
Vth:         2.65e-02
Vdsat:       1.03e+01
Gm:          2.38e-04
Gds:         0.00e+00
Gmb:         0.00e+00
Cbd:         0.00e+00
Cbs:         0.00e+00
Cgsov:       0.00e+00
Cgdov:       0.00e+00
Cgbov:       0.00e+00
Cgs:         0.00e+00
Cgd:         0.00e+00
Cgb:         0.00e+00



Date: Tue Jan 30 18:06:07 2024
Total elapsed time: 2.874 seconds.

tnom = 27
temp = 80
method = trap
totiter = 13
traniter = 0
tranpoints = 0
accept = 0
rejected = 0
matrix size = 29
fillins = 10
solver = Normal
Matrix Compiler1: 2.80 KB object code size
Matrix Compiler2: 2.78 KB object code size
