Circuit: * C:\Users\Virgil\Desktop\P1_2023_431C_RONCEA_TEODOR_SERS_N18_LTspice\Simulations\SIMULATOR\THERMAL_DRIFT.asc

Warning: Multiple definitions of model "bc807-25" Type: BJT
Direct Newton iteration for .op point succeeded.
Semiconductor Device Operating Points:
                        --- Diodes ---
Name:      d1
Model: bzx84c6v2l
Id:     -2.61e-03
Vd:     -6.27e+00
Req:     2.70e+01
CAP:     6.81e-11

                        --- Bipolar Transistors ---
Name:       q12         q9          q8          q11         q10
Model:    qmjd31c     2n3906      2n3906     bc807-25    bc807-25
Ib:       1.65e-04   -3.43e-05   -1.33e-05   -1.23e-05   -1.33e-05
Ic:       1.26e-02   -7.21e-03   -2.32e-03   -3.81e-03   -3.79e-03
Vbe:      6.35e-01   -7.46e-01   -7.23e-01   -6.97e-01   -6.99e-01
Vbc:     -1.31e+01    2.28e+01    7.46e-01    1.20e+01    0.00e+00
Vce:      1.37e+01   -2.36e+01   -1.47e+00   -1.27e+01   -6.99e-01
BetaDC:   7.65e+01    2.10e+02    1.74e+02    3.10e+02    2.86e+02
Gm:       4.07e-01    3.02e-01    9.79e-02    1.60e-01    1.58e-01
Rpi:      5.41e+02    6.86e+02    1.77e+03    2.36e+03    2.18e+03
Rx:       1.96e+01    2.00e+01    2.00e+01    8.52e-01    8.52e-01
Ro:       2.46e+03    1.70e+04    4.34e+04    3.38e+04    3.08e+04
Cbe:      5.92e-09    1.21e-10    4.98e-11    2.69e-10    2.68e-10
Cbc:      9.48e-12    1.43e-12    3.53e-12    1.12e-11    3.16e-11
Cjs:      0.00e+00    0.00e+00    0.00e+00    0.00e+00    0.00e+00
BetaAC:   2.20e+02    2.07e+02    1.73e+02    3.77e+02    3.45e+02
Cbx:      8.54e-11    0.00e+00    0.00e+00    0.00e+00    0.00e+00
Ft:       1.08e+07    3.91e+08    2.92e+08    9.07e+07    8.41e+07

Name:       q4          q3          q13         q7          q6
Model:   bc807-25    bc807-25    bc817-25    bc817-25    bc817-25
Ib:      -9.51e-06   -8.55e-06   -6.11e-13    2.21e-05    2.20e-05
Ic:      -2.52e-03   -2.53e-03    6.21e-13    7.16e-03    7.48e-03
Vbe:     -6.89e-01   -6.86e-01    2.14e-02    7.01e-01    7.01e-01
Vbc:      0.00e+00    1.75e+01   -6.35e-01    0.00e+00   -4.89e+00
Vce:     -6.89e-01   -1.82e+01    6.56e-01    7.01e-01    5.59e+00
BetaDC:   2.65e+02    2.96e+02   -1.02e+00    3.24e+02    3.40e+02
Gm:       1.06e-01    1.07e-01    1.05e-13    2.99e-01    3.12e-01
Rpi:      3.13e+03    3.51e+03    9.98e+11    1.07e+03    1.07e+03
Rx:       8.52e-01    8.52e-01    1.00e+00    1.00e+00    1.00e+00
Ro:       4.64e+04    5.30e+04    4.37e+16    1.46e+04    1.47e+04
Cbe:      2.34e-10    2.34e-10    3.75e-11    2.53e-10    2.59e-10
Cbc:      3.16e-11    1.00e-11    3.91e-12    5.38e-12    2.11e-12
Cjs:      0.00e+00    0.00e+00    0.00e+00    0.00e+00    0.00e+00
BetaAC:   3.31e+02    3.75e+02    1.05e-01    3.19e+02    3.34e+02
Cbx:      0.00e+00    0.00e+00    4.67e-12    6.43e-12    2.52e-12
Ft:       6.35e+07    6.96e+07    3.44e-03    1.80e+08    1.88e+08

Name:       q5          q2          q1
Model:   bc817-25    bc817-25    bc817-25
Ib:       6.63e-06    1.06e-05    9.97e-06
Ic:       2.54e-03    3.64e-03    3.81e-03
Vbe:      6.72e-01    6.83e-01    6.82e-01
Vbc:     -1.75e+01   -5.66e+00   -1.77e+01
Vce:      1.82e+01    6.35e+00    1.83e+01
BetaDC:   3.83e+02    3.45e+02    3.82e+02
Gm:       1.07e-01    1.53e-01    1.60e-01
Rpi:      3.56e+03    2.23e+03    2.37e+03
Rx:       1.00e+00    1.00e+00    1.00e+00
Ro:       4.83e+04    3.04e+04    3.22e+04
Cbe:      1.40e-10    1.69e-10    1.72e-10
Cbc:      1.31e-12    2.00e-12    1.30e-12
Cjs:      0.00e+00    0.00e+00    0.00e+00
BetaAC:   3.81e+02    3.42e+02    3.79e+02
Cbx:      1.56e-12    2.39e-12    1.56e-12
Ft:       1.19e+08    1.41e+08    1.46e+08



Date: Tue Jan 30 16:24:23 2024
Total elapsed time: 2.800 seconds.

tnom = 27
temp = 80
method = trap
totiter = 438
traniter = 0
tranpoints = 0
accept = 0
rejected = 0
matrix size = 66
fillins = 42
solver = Normal
Matrix Compiler1: 7.73 KB object code size
Matrix Compiler2: 6.69 KB object code size  0.7/0.7/[0.4]

